ZPLOT2 ASCII
  Measured Data, ZPlot:       3.5h
  Experiment Type:            Sweep Frequency, Control Voltage
  Date:                       09-09-2021
  Time:                       15:16:03
  Open Circuit Potential (V): 0
  Begin User Comments:        0
  End User Comments:          0
  Begin Experiment:           0
    Potential-DC:             0
    Potential-DC Type:        0
    Potential-AC:             10
    Potential-Monitor Type:   0
    Potential-Monitor TargetI:1
    Potential-Monitor Limit:  3000
    Potential-Monitor Error:  25
    Current-DC:               0
    Current-AC:               0.1
    Current-Monitor Type:     0
    Current-Monitor TargetE:  20
    Current-Monitor Limit:    60
    Current-Monitor Error:    25
    vs Freq-Initial:          100000
    vs Freq-Final:            0.1
    vs Freq-Lin/Log Type:     1
    vs Freq-Linear Type:      1
    vs Freq-Linear Interval:  100
    vs Freq-Log Type:         0
    vs Freq-Log Interval:     10
    Harmonics:                3
    PolE-Initial:             0
    PolE-Final:               0.2
    PolE-InitialType:         0
    PolE-FinalType:           0
    PolE-SweepRate:           1
    PolE-SweepRateType:       0
    PolE-DataRate:            5
    PolE-SegmentNo:           2
    PolE-IR:                  0
    AmplE-Initial:            10
    AmplE-Final:              200
    AmplE-SweepRate:          1
    AmplE-DataRate:           5
    AmplE-SegmentNo:          2
    PolI-Initial:             0
    PolI-Vertex:              0.01
    PolI-Final:               0.01
    PolI-SweepRate:           0.1
    PolI-SweepRateType:       0
    PolI-DataRate:            5
    PolI-SegmentNo:           2
    AmplI-Initial:            0.1
    AmplI-Final:              10
    AmplI-SweepRate:          0.1
    AmplI-DataRate:           5
    AmplI-SegmentNo:          2
    vs Time-Freq:             1000
    vs Time-Harmonic:         1
    vs Time-Total Time:       100
    vs Time-Time Type:        0
    vs Time-Interval:         5
  End Experiment:             0
  Begin Pstat/Gstat:          1287
    Booster Type:             0
    Booster Name:             None
    Pstat Range High:         0
    Pstat Range Low:          0
    Pstat Range Frequency:    5000
    Pstat Range Minimum:      0
    Pstat Limit Range:        0
    Pstat Limit Type:         2
    Pstat Bandwidth:          2
    Pstat Use Aux:            0
    Gstat Range:              0
    Gstat Bandwidth:          2
    Filter:                   1
    Error Beep:               0
    Bias Rejection:           1
    Attenuator:               2
    Grounding:                0
    Calibration File
  End Pstat/Gstat:            1287
  Begin Analyzer:             1252
    Z60 Mode:                 3
    Z60 GD Freq-:             5
    Z60 GD Freq+:             5
    Bias Voltage:             0
    Auto Integration Type:    0
    Integration Time Type:    0
    Integration Seconds:      0.2
    Integration Cycles:       1
    Delay Time Type:          1
    Delay Seconds:            0
    Delay Cycles:             0
    Source:                   2
    SourceI:                  1
    Error Beep:               0
    Range V1:                 0
    Coupling V1:              0
    Input V1:                 0
    Outer V1:                 1
    Location V1:              0
    Range V2:                 0
    Coupling V2:              0
    Input V2:                 0
    Outer V2:                 1
    Location V2:              0
    Coupling I:               0
  End Analyzer:               1252
  Begin Information:          Cell Information
    Surface Area:             1
    Density:                  0
    Weight:                   0
    Polarity:                 0
    PolarityI:                0
    Corrosion Unit Type:      0
    Reference Type:           0
    Reference Potential:      0
    User-Defined Potential:   0
    Stern-Geary:              26
  End Information:            Cell Information
  Null Configuration:         0,3,0,1,100000,0.1
  Data Points:                61
  Freq(Hz)	Ampl	Bias	Time(Sec)	Z'(a)	Z''(b)	Aux	Err	Range
End Comments
1.000000E+05	1.0000E-02	0.0000E+00	4.380000E+00	1.3246E+02	5.3787E+00	0.0000E+00	0	4
7.943282E+04	1.0000E-02	0.0000E+00	5.130000E+00	1.3249E+02	4.2652E+00	0.0000E+00	0	4
6.309573E+04	1.0000E-02	0.0000E+00	9.130000E+00	1.3261E+02	3.4059E+00	0.0000E+00	0	4
5.011872E+04	1.0000E-02	0.0000E+00	9.870000E+00	1.3270E+02	2.6908E+00	0.0000E+00	0	4
3.981072E+04	1.0000E-02	0.0000E+00	1.062000E+01	1.3281E+02	2.1196E+00	0.0000E+00	0	4
3.162278E+04	1.0000E-02	0.0000E+00	1.137000E+01	1.3288E+02	1.6766E+00	0.0000E+00	0	4
2.511886E+04	1.0000E-02	0.0000E+00	1.212000E+01	1.3287E+02	1.3306E+00	0.0000E+00	0	4
1.995262E+04	1.0000E-02	0.0000E+00	1.287000E+01	1.3290E+02	9.8572E-01	0.0000E+00	0	4
1.584893E+04	1.0000E-02	0.0000E+00	1.362000E+01	1.3276E+02	8.3684E-01	0.0000E+00	0	4
1.258925E+04	1.0000E-02	0.0000E+00	1.437000E+01	1.3277E+02	6.5604E-01	0.0000E+00	0	4
1.000000E+04	1.0000E-02	0.0000E+00	1.512000E+01	1.3285E+02	5.0257E-01	0.0000E+00	0	4
7.943282E+03	1.0000E-02	0.0000E+00	1.587000E+01	1.3290E+02	3.6685E-01	0.0000E+00	0	4
6.309573E+03	1.0000E-02	0.0000E+00	1.662000E+01	1.3285E+02	2.5662E-01	0.0000E+00	0	4
5.011872E+03	1.0000E-02	0.0000E+00	1.735000E+01	1.3276E+02	1.6614E-01	0.0000E+00	0	4
3.981072E+03	1.0000E-02	0.0000E+00	1.813000E+01	1.3273E+02	7.5299E-02	0.0000E+00	0	4
3.162278E+03	1.0000E-02	0.0000E+00	1.888000E+01	1.3264E+02	1.4835E-03	0.0000E+00	0	4
2.511886E+03	1.0000E-02	0.0000E+00	1.959000E+01	1.3263E+02	-7.4737E-02	0.0000E+00	0	4
1.995262E+03	1.0000E-02	0.0000E+00	2.036000E+01	1.3264E+02	-1.5517E-01	0.0000E+00	0	4
1.584893E+03	1.0000E-02	0.0000E+00	2.111000E+01	1.3257E+02	-2.4085E-01	0.0000E+00	0	4
1.258925E+03	1.0000E-02	0.0000E+00	2.184000E+01	1.3255E+02	-3.5284E-01	0.0000E+00	0	4
1.000000E+03	1.0000E-02	0.0000E+00	2.263000E+01	1.3259E+02	-4.5533E-01	0.0000E+00	0	4
7.943282E+02	1.0000E-02	0.0000E+00	2.337000E+01	1.3264E+02	-6.1409E-01	0.0000E+00	0	4
6.309573E+02	1.0000E-02	0.0000E+00	2.585000E+01	1.3255E+02	-7.9416E-01	0.0000E+00	0	4
5.011872E+02	1.0000E-02	0.0000E+00	2.662000E+01	1.3254E+02	-9.8004E-01	0.0000E+00	0	4
3.981072E+02	1.0000E-02	0.0000E+00	2.738000E+01	1.3254E+02	-1.2372E+00	0.0000E+00	0	4
3.162278E+02	1.0000E-02	0.0000E+00	2.810000E+01	1.3259E+02	-1.5314E+00	0.0000E+00	0	4
2.511886E+02	1.0000E-02	0.0000E+00	2.887000E+01	1.3258E+02	-1.9660E+00	0.0000E+00	0	4
1.995262E+02	1.0000E-02	0.0000E+00	2.963000E+01	1.3258E+02	-2.4815E+00	0.0000E+00	0	4
1.584893E+02	1.0000E-02	0.0000E+00	3.037000E+01	1.3261E+02	-3.1391E+00	0.0000E+00	0	4
1.258925E+02	1.0000E-02	0.0000E+00	3.113000E+01	1.3269E+02	-3.9293E+00	0.0000E+00	0	4
1.000000E+02	1.0000E-02	0.0000E+00	3.187000E+01	1.3276E+02	-4.9249E+00	0.0000E+00	0	4
7.943282E+01	1.0000E-02	0.0000E+00	3.262000E+01	1.3287E+02	-6.1755E+00	0.0000E+00	0	4
6.309573E+01	1.0000E-02	0.0000E+00	3.337000E+01	1.3311E+02	-7.7088E+00	0.0000E+00	0	4
5.011872E+01	1.0000E-02	0.0000E+00	3.413000E+01	1.3330E+02	-9.6785E+00	0.0000E+00	0	4
3.981072E+01	1.0000E-02	0.0000E+00	3.487000E+01	1.3373E+02	-1.2125E+01	0.0000E+00	0	4
3.162278E+01	1.0000E-02	0.0000E+00	3.562000E+01	1.3440E+02	-1.5141E+01	0.0000E+00	0	4
2.511886E+01	1.0000E-02	0.0000E+00	3.637000E+01	1.3542E+02	-1.8851E+01	0.0000E+00	0	4
1.995262E+01	1.0000E-02	0.0000E+00	3.712000E+01	1.3692E+02	-2.3388E+01	0.0000E+00	0	4
1.584893E+01	1.0000E-02	0.0000E+00	3.785000E+01	1.3917E+02	-2.8842E+01	0.0000E+00	0	4
1.258925E+01	1.0000E-02	0.0000E+00	3.861000E+01	1.4253E+02	-3.5286E+01	0.0000E+00	0	4
1.000000E+01	1.0000E-02	0.0000E+00	3.936000E+01	1.4745E+02	-4.2600E+01	0.0000E+00	0	4
7.943280E+00	1.0000E-02	0.0000E+00	4.024000E+01	1.5443E+02	-5.0486E+01	0.0000E+00	0	4
6.309570E+00	1.0000E-02	0.0000E+00	4.124000E+01	1.6400E+02	-5.8307E+01	0.0000E+00	0	4
5.011870E+00	1.0000E-02	0.0000E+00	4.213000E+01	1.7634E+02	-6.5062E+01	0.0000E+00	0	4
3.981070E+00	1.0000E-02	0.0000E+00	4.299000E+01	1.9106E+02	-6.9581E+01	0.0000E+00	0	4
3.162280E+00	1.0000E-02	0.0000E+00	4.412000E+01	2.0710E+02	-7.0846E+01	0.0000E+00	0	4
2.511890E+00	1.0000E-02	0.0000E+00	4.524000E+01	2.2290E+02	-6.8581E+01	0.0000E+00	0	4
1.995260E+00	1.0000E-02	0.0000E+00	4.624000E+01	2.3701E+02	-6.3286E+01	0.0000E+00	0	4
1.584890E+00	1.0000E-02	0.0000E+00	4.738000E+01	2.4858E+02	-5.6096E+01	0.0000E+00	0	4
1.258930E+00	1.0000E-02	0.0000E+00	4.887000E+01	2.5750E+02	-4.8134E+01	0.0000E+00	0	4
1.000000E+00	1.0000E-02	0.0000E+00	5.075000E+01	2.6392E+02	-4.0349E+01	0.0000E+00	0	4
7.943300E-01	1.0000E-02	0.0000E+00	5.249000E+01	2.6835E+02	-3.3211E+01	0.0000E+00	0	4
6.309600E-01	1.0000E-02	0.0000E+00	5.613000E+01	2.7136E+02	-2.7069E+01	0.0000E+00	0	4
5.011900E-01	1.0000E-02	0.0000E+00	5.948000E+01	2.7343E+02	-2.1837E+01	0.0000E+00	0	4
3.981100E-01	1.0000E-02	0.0000E+00	6.299000E+01	2.7477E+02	-1.7568E+01	0.0000E+00	0	4
3.162300E-01	1.0000E-02	0.0000E+00	6.760000E+01	2.7566E+02	-1.4148E+01	0.0000E+00	0	4
2.511900E-01	1.0000E-02	0.0000E+00	7.350000E+01	2.7635E+02	-1.1261E+01	0.0000E+00	0	4
1.995300E-01	1.0000E-02	0.0000E+00	8.097000E+01	2.7682E+02	-9.0379E+00	0.0000E+00	0	4
1.584900E-01	1.0000E-02	0.0000E+00	9.033000E+01	2.7749E+02	-7.1323E+00	0.0000E+00	0	4
1.258900E-01	1.0000E-02	0.0000E+00	1.022400E+02	2.7854E+02	-5.6060E+00	0.0000E+00	0	4
1.000000E-01	1.0000E-02	0.0000E+00	1.169800E+02	2.8342E+02	-3.3940E+00	0.0000E+00	0	4
